         * c:\users\saisr\esim-workspace\ring_counter\ring_counter.cir
         Transient Analysis  Fri May 14 11:53:53  2021
--------------------------------------------------------------------------------
Index   time            clk             out1            out2            
--------------------------------------------------------------------------------
0	0.000000e+000	0.000000e+000	0.000000e+000	0.000000e+000	
1	1.000000e-007	0.000000e+000	0.000000e+000	0.000000e+000	
2	2.000000e-007	0.000000e+000	0.000000e+000	0.000000e+000	
3	4.000000e-007	0.000000e+000	0.000000e+000	0.000000e+000	
4	8.000000e-007	0.000000e+000	0.000000e+000	0.000000e+000	
5	1.600000e-006	0.000000e+000	0.000000e+000	0.000000e+000	
6	3.200000e-006	0.000000e+000	0.000000e+000	0.000000e+000	
7	6.400000e-006	0.000000e+000	0.000000e+000	0.000000e+000	
8	1.000000e-005	0.000000e+000	0.000000e+000	0.000000e+000	
9	1.064000e-005	6.400000e-001	0.000000e+000	0.000000e+000	
10	1.192000e-005	1.920000e+000	0.000000e+000	0.000000e+000	
11	1.192200e-005	1.922000e+000	0.000000e+000	0.000000e+000	
12	1.192210e-005	1.922100e+000	5.000000e-001	0.000000e+000	
13	1.192230e-005	1.922300e+000	1.500000e+000	0.000000e+000	
14	1.192270e-005	1.922700e+000	3.500000e+000	0.000000e+000	
15	1.192300e-005	1.923000e+000	5.000000e+000	0.000000e+000	
16	1.192308e-005	1.923080e+000	5.000000e+000	0.000000e+000	
17	1.192324e-005	1.923240e+000	5.000000e+000	0.000000e+000	
18	1.192356e-005	1.923560e+000	5.000000e+000	0.000000e+000	
19	1.192420e-005	1.924200e+000	5.000000e+000	0.000000e+000	
20	1.192548e-005	1.925480e+000	5.000000e+000	0.000000e+000	
21	1.192804e-005	1.928040e+000	5.000000e+000	0.000000e+000	
22	1.193316e-005	1.933160e+000	5.000000e+000	0.000000e+000	
23	1.194340e-005	1.943400e+000	5.000000e+000	0.000000e+000	
24	1.196388e-005	1.963880e+000	5.000000e+000	0.000000e+000	
25	1.200484e-005	2.004840e+000	5.000000e+000	0.000000e+000	
26	1.208676e-005	2.086760e+000	5.000000e+000	0.000000e+000	
27	1.225060e-005	2.250600e+000	5.000000e+000	0.000000e+000	
28	1.257828e-005	2.578280e+000	5.000000e+000	0.000000e+000	
29	1.323364e-005	3.233640e+000	5.000000e+000	0.000000e+000	
30	1.454436e-005	4.544360e+000	5.000000e+000	0.000000e+000	
31	1.716580e-005	7.165800e+000	5.000000e+000	0.000000e+000	
32	2.000000e-005	1.000000e+001	5.000000e+000	0.000000e+000	
33	2.052429e-005	1.000000e+001	5.000000e+000	0.000000e+000	
34	2.157286e-005	1.000000e+001	5.000000e+000	0.000000e+000	
35	2.367002e-005	1.000000e+001	5.000000e+000	0.000000e+000	
36	2.786432e-005	1.000000e+001	5.000000e+000	0.000000e+000	
37	3.625293e-005	1.000000e+001	5.000000e+000	0.000000e+000	
38	5.303014e-005	1.000000e+001	5.000000e+000	0.000000e+000	
39	8.658458e-005	1.000000e+001	5.000000e+000	0.000000e+000	
40	1.536934e-004	1.000000e+001	5.000000e+000	0.000000e+000	
41	2.879112e-004	1.000000e+001	5.000000e+000	0.000000e+000	
42	5.563466e-004	1.000000e+001	5.000000e+000	0.000000e+000	
43	1.020000e-003	1.000000e+001	5.000000e+000	0.000000e+000	
44	1.021000e-003	1.000000e+001	5.000000e+000	0.000000e+000	
45	1.023000e-003	1.000000e+001	5.000000e+000	0.000000e+000	
46	1.027000e-003	1.000000e+001	5.000000e+000	0.000000e+000	
47	1.030000e-003	1.000000e+001	5.000000e+000	0.000000e+000	
48	1.030002e-003	1.000000e+001	5.000000e+000	0.000000e+000	
49	1.030002e-003	1.000000e+001	4.500000e+000	5.000000e-001	
50	1.030002e-003	1.000000e+001	3.500000e+000	1.500000e+000	
51	1.030003e-003	1.000000e+001	1.500000e+000	3.500000e+000	
52	1.030003e-003	1.000000e+001	4.633804e-010	5.000000e+000	
53	1.030003e-003	1.000000e+001	0.000000e+000	5.000000e+000	
54	1.030003e-003	1.000000e+001	0.000000e+000	5.000000e+000	

Index   time            clk             out1            out2            
--------------------------------------------------------------------------------
55	1.030004e-003	1.000000e+001	0.000000e+000	5.000000e+000	
56	1.030004e-003	1.000000e+001	0.000000e+000	5.000000e+000	
57	1.030005e-003	1.000000e+001	0.000000e+000	5.000000e+000	
58	1.030008e-003	1.000000e+001	0.000000e+000	5.000000e+000	
59	1.030013e-003	1.000000e+001	0.000000e+000	5.000000e+000	
60	1.030023e-003	1.000000e+001	0.000000e+000	5.000000e+000	
61	1.030044e-003	1.000000e+001	0.000000e+000	5.000000e+000	
62	1.030085e-003	1.000000e+001	0.000000e+000	5.000000e+000	
63	1.030167e-003	1.000000e+001	0.000000e+000	5.000000e+000	
64	1.030331e-003	1.000000e+001	0.000000e+000	5.000000e+000	
65	1.030658e-003	1.000000e+001	0.000000e+000	5.000000e+000	
66	1.031314e-003	1.000000e+001	0.000000e+000	5.000000e+000	
67	1.032624e-003	1.000000e+001	0.000000e+000	5.000000e+000	
68	1.035246e-003	1.000000e+001	0.000000e+000	5.000000e+000	
69	1.040489e-003	1.000000e+001	0.000000e+000	5.000000e+000	
70	1.050974e-003	1.000000e+001	0.000000e+000	5.000000e+000	
71	1.071946e-003	1.000000e+001	0.000000e+000	5.000000e+000	
72	1.113889e-003	1.000000e+001	0.000000e+000	5.000000e+000	
73	1.197775e-003	1.000000e+001	0.000000e+000	5.000000e+000	
74	1.365547e-003	1.000000e+001	0.000000e+000	5.000000e+000	
75	1.701092e-003	1.000000e+001	0.000000e+000	5.000000e+000	
76	2.372180e-003	1.000000e+001	0.000000e+000	5.000000e+000	
77	3.714357e-003	1.000000e+001	0.000000e+000	5.000000e+000	
78	6.398712e-003	1.000000e+001	0.000000e+000	5.000000e+000	
79	1.002000e-002	1.000000e+001	0.000000e+000	5.000000e+000	
80	1.002100e-002	9.000000e+000	0.000000e+000	5.000000e+000	
81	1.002300e-002	7.000000e+000	0.000000e+000	5.000000e+000	
82	1.002700e-002	3.000000e+000	0.000000e+000	5.000000e+000	
83	1.003000e-002	0.000000e+000	0.000000e+000	5.000000e+000	
84	1.003080e-002	0.000000e+000	0.000000e+000	5.000000e+000	
85	1.003240e-002	0.000000e+000	0.000000e+000	5.000000e+000	
86	1.003560e-002	0.000000e+000	0.000000e+000	5.000000e+000	
87	1.004200e-002	0.000000e+000	0.000000e+000	5.000000e+000	
88	1.005480e-002	0.000000e+000	0.000000e+000	5.000000e+000	
89	1.008040e-002	0.000000e+000	0.000000e+000	5.000000e+000	
90	1.013160e-002	0.000000e+000	0.000000e+000	5.000000e+000	
91	1.023400e-002	0.000000e+000	0.000000e+000	5.000000e+000	
92	1.043880e-002	0.000000e+000	0.000000e+000	5.000000e+000	
93	1.084840e-002	0.000000e+000	0.000000e+000	5.000000e+000	
94	1.166760e-002	0.000000e+000	0.000000e+000	5.000000e+000	
95	1.330600e-002	0.000000e+000	0.000000e+000	5.000000e+000	
96	1.658280e-002	0.000000e+000	0.000000e+000	5.000000e+000	
97	2.001000e-002	0.000000e+000	0.000000e+000	5.000000e+000	
98	2.001100e-002	1.000000e+000	0.000000e+000	5.000000e+000	
99	2.001100e-002	1.002000e+000	0.000000e+000	5.000000e+000	
100	2.001100e-002	1.002100e+000	0.000000e+000	4.500000e+000	
101	2.001100e-002	1.002300e+000	0.000000e+000	3.500000e+000	
102	2.001100e-002	1.002700e+000	0.000000e+000	1.500000e+000	
103	2.001100e-002	1.003000e+000	0.000000e+000	2.631785e-009	
104	2.001100e-002	1.003080e+000	0.000000e+000	0.000000e+000	
105	2.001100e-002	1.003240e+000	0.000000e+000	0.000000e+000	
106	2.001100e-002	1.003560e+000	0.000000e+000	0.000000e+000	
107	2.001100e-002	1.004200e+000	0.000000e+000	0.000000e+000	
108	2.001101e-002	1.005480e+000	0.000000e+000	0.000000e+000	
109	2.001101e-002	1.008040e+000	0.000000e+000	0.000000e+000	
110	2.001101e-002	1.013160e+000	0.000000e+000	0.000000e+000	
111	2.001102e-002	1.023400e+000	0.000000e+000	0.000000e+000	
112	2.001104e-002	1.043880e+000	0.000000e+000	0.000000e+000	

Index   time            clk             out1            out2            
--------------------------------------------------------------------------------
113	2.001108e-002	1.084840e+000	0.000000e+000	0.000000e+000	
114	2.001117e-002	1.166760e+000	0.000000e+000	0.000000e+000	
115	2.001133e-002	1.330600e+000	0.000000e+000	0.000000e+000	
116	2.001166e-002	1.658280e+000	0.000000e+000	0.000000e+000	
117	2.001231e-002	2.313640e+000	0.000000e+000	0.000000e+000	
118	2.001362e-002	3.624360e+000	0.000000e+000	0.000000e+000	
119	2.001625e-002	6.245800e+000	0.000000e+000	0.000000e+000	
120	2.002000e-002	1.000000e+001	0.000000e+000	0.000000e+000	
121	2.002052e-002	1.000000e+001	0.000000e+000	0.000000e+000	
122	2.002157e-002	1.000000e+001	0.000000e+000	0.000000e+000	
123	2.002367e-002	1.000000e+001	0.000000e+000	0.000000e+000	
124	2.002786e-002	1.000000e+001	0.000000e+000	0.000000e+000	
125	2.003625e-002	1.000000e+001	0.000000e+000	0.000000e+000	
126	2.005303e-002	1.000000e+001	0.000000e+000	0.000000e+000	
127	2.008658e-002	1.000000e+001	0.000000e+000	0.000000e+000	
128	2.015369e-002	1.000000e+001	0.000000e+000	0.000000e+000	
129	2.028791e-002	1.000000e+001	0.000000e+000	0.000000e+000	
130	2.055635e-002	1.000000e+001	0.000000e+000	0.000000e+000	
131	2.109322e-002	1.000000e+001	0.000000e+000	0.000000e+000	
132	2.216696e-002	1.000000e+001	0.000000e+000	0.000000e+000	
133	2.431444e-002	1.000000e+001	0.000000e+000	0.000000e+000	
134	2.860941e-002	1.000000e+001	0.000000e+000	0.000000e+000	
135	3.002000e-002	1.000000e+001	0.000000e+000	0.000000e+000	
136	3.002100e-002	9.000000e+000	0.000000e+000	0.000000e+000	
137	3.002300e-002	7.000000e+000	0.000000e+000	0.000000e+000	
138	3.002700e-002	3.000000e+000	0.000000e+000	0.000000e+000	
139	3.003000e-002	0.000000e+000	0.000000e+000	0.000000e+000	
140	3.003080e-002	0.000000e+000	0.000000e+000	0.000000e+000	
141	3.003240e-002	0.000000e+000	0.000000e+000	0.000000e+000	
142	3.003560e-002	0.000000e+000	0.000000e+000	0.000000e+000	
143	3.004200e-002	0.000000e+000	0.000000e+000	0.000000e+000	
144	3.005480e-002	0.000000e+000	0.000000e+000	0.000000e+000	
145	3.008040e-002	0.000000e+000	0.000000e+000	0.000000e+000	
146	3.013160e-002	0.000000e+000	0.000000e+000	0.000000e+000	
147	3.023400e-002	0.000000e+000	0.000000e+000	0.000000e+000	
148	3.043880e-002	0.000000e+000	0.000000e+000	0.000000e+000	
149	3.084840e-002	0.000000e+000	0.000000e+000	0.000000e+000	
150	3.166760e-002	0.000000e+000	0.000000e+000	0.000000e+000	
151	3.330600e-002	0.000000e+000	0.000000e+000	0.000000e+000	
152	3.658280e-002	0.000000e+000	0.000000e+000	0.000000e+000	
153	4.001000e-002	0.000000e+000	0.000000e+000	0.000000e+000	
154	4.001100e-002	1.000000e+000	0.000000e+000	0.000000e+000	
155	4.001100e-002	1.002000e+000	0.000000e+000	0.000000e+000	
156	4.001100e-002	1.002100e+000	0.000000e+000	0.000000e+000	
157	4.001100e-002	1.002300e+000	0.000000e+000	0.000000e+000	
158	4.001100e-002	1.002700e+000	0.000000e+000	0.000000e+000	
159	4.001100e-002	1.003000e+000	0.000000e+000	0.000000e+000	
160	4.001100e-002	1.003080e+000	0.000000e+000	0.000000e+000	
161	4.001100e-002	1.003240e+000	0.000000e+000	0.000000e+000	
162	4.001100e-002	1.003560e+000	0.000000e+000	0.000000e+000	
163	4.001100e-002	1.004200e+000	0.000000e+000	0.000000e+000	
164	4.001101e-002	1.005480e+000	0.000000e+000	0.000000e+000	
165	4.001101e-002	1.008040e+000	0.000000e+000	0.000000e+000	
166	4.001101e-002	1.013160e+000	0.000000e+000	0.000000e+000	
167	4.001102e-002	1.023400e+000	0.000000e+000	0.000000e+000	
168	4.001104e-002	1.043880e+000	0.000000e+000	0.000000e+000	
169	4.001108e-002	1.084840e+000	0.000000e+000	0.000000e+000	
170	4.001117e-002	1.166760e+000	0.000000e+000	0.000000e+000	

Index   time            clk             out1            out2            
--------------------------------------------------------------------------------
171	4.001133e-002	1.330600e+000	0.000000e+000	0.000000e+000	
172	4.001166e-002	1.658280e+000	0.000000e+000	0.000000e+000	
173	4.001231e-002	2.313640e+000	0.000000e+000	0.000000e+000	
174	4.001362e-002	3.624360e+000	0.000000e+000	0.000000e+000	
175	4.001625e-002	6.245800e+000	0.000000e+000	0.000000e+000	
176	4.002000e-002	1.000000e+001	0.000000e+000	0.000000e+000	
177	4.002052e-002	1.000000e+001	0.000000e+000	0.000000e+000	
178	4.002157e-002	1.000000e+001	0.000000e+000	0.000000e+000	
179	4.002367e-002	1.000000e+001	0.000000e+000	0.000000e+000	
180	4.002786e-002	1.000000e+001	0.000000e+000	0.000000e+000	
181	4.003625e-002	1.000000e+001	0.000000e+000	0.000000e+000	
182	4.005303e-002	1.000000e+001	0.000000e+000	0.000000e+000	
183	4.008658e-002	1.000000e+001	0.000000e+000	0.000000e+000	
184	4.015369e-002	1.000000e+001	0.000000e+000	0.000000e+000	
185	4.028791e-002	1.000000e+001	0.000000e+000	0.000000e+000	
186	4.055635e-002	1.000000e+001	0.000000e+000	0.000000e+000	
187	4.109322e-002	1.000000e+001	0.000000e+000	0.000000e+000	
188	4.216696e-002	1.000000e+001	0.000000e+000	0.000000e+000	
189	4.431444e-002	1.000000e+001	0.000000e+000	0.000000e+000	
190	4.860941e-002	1.000000e+001	0.000000e+000	0.000000e+000	
191	5.002000e-002	1.000000e+001	0.000000e+000	0.000000e+000	
192	5.002100e-002	9.000000e+000	0.000000e+000	0.000000e+000	
193	5.002300e-002	7.000000e+000	0.000000e+000	0.000000e+000	
194	5.002700e-002	3.000000e+000	0.000000e+000	0.000000e+000	
195	5.003000e-002	0.000000e+000	0.000000e+000	0.000000e+000	
196	5.003080e-002	0.000000e+000	0.000000e+000	0.000000e+000	
197	5.003240e-002	0.000000e+000	0.000000e+000	0.000000e+000	
198	5.003560e-002	0.000000e+000	0.000000e+000	0.000000e+000	
199	5.004200e-002	0.000000e+000	0.000000e+000	0.000000e+000	
200	5.005480e-002	0.000000e+000	0.000000e+000	0.000000e+000	
201	5.008040e-002	0.000000e+000	0.000000e+000	0.000000e+000	
202	5.013160e-002	0.000000e+000	0.000000e+000	0.000000e+000	
203	5.023400e-002	0.000000e+000	0.000000e+000	0.000000e+000	
204	5.043880e-002	0.000000e+000	0.000000e+000	0.000000e+000	
205	5.084840e-002	0.000000e+000	0.000000e+000	0.000000e+000	
206	5.166760e-002	0.000000e+000	0.000000e+000	0.000000e+000	
207	5.330600e-002	0.000000e+000	0.000000e+000	0.000000e+000	
208	5.658280e-002	0.000000e+000	0.000000e+000	0.000000e+000	
209	6.001000e-002	0.000000e+000	0.000000e+000	0.000000e+000	
210	6.001100e-002	1.000000e+000	0.000000e+000	0.000000e+000	
211	6.001100e-002	1.002000e+000	0.000000e+000	0.000000e+000	
212	6.001100e-002	1.002100e+000	5.000000e-001	0.000000e+000	
213	6.001100e-002	1.002300e+000	1.500000e+000	0.000000e+000	
214	6.001100e-002	1.002700e+000	3.500000e+000	0.000000e+000	
215	6.001100e-002	1.003000e+000	5.000000e+000	0.000000e+000	
216	6.001100e-002	1.003080e+000	5.000000e+000	0.000000e+000	
217	6.001100e-002	1.003240e+000	5.000000e+000	0.000000e+000	
218	6.001100e-002	1.003560e+000	5.000000e+000	0.000000e+000	
219	6.001100e-002	1.004200e+000	5.000000e+000	0.000000e+000	
220	6.001101e-002	1.005480e+000	5.000000e+000	0.000000e+000	
221	6.001101e-002	1.008040e+000	5.000000e+000	0.000000e+000	
222	6.001101e-002	1.013160e+000	5.000000e+000	0.000000e+000	
223	6.001102e-002	1.023400e+000	5.000000e+000	0.000000e+000	
224	6.001104e-002	1.043880e+000	5.000000e+000	0.000000e+000	
225	6.001108e-002	1.084840e+000	5.000000e+000	0.000000e+000	
226	6.001117e-002	1.166760e+000	5.000000e+000	0.000000e+000	
227	6.001133e-002	1.330600e+000	5.000000e+000	0.000000e+000	
228	6.001166e-002	1.658280e+000	5.000000e+000	0.000000e+000	

Index   time            clk             out1            out2            
--------------------------------------------------------------------------------
229	6.001231e-002	2.313640e+000	5.000000e+000	0.000000e+000	
230	6.001362e-002	3.624360e+000	5.000000e+000	0.000000e+000	
231	6.001625e-002	6.245800e+000	5.000000e+000	0.000000e+000	
232	6.002000e-002	1.000000e+001	5.000000e+000	0.000000e+000	
233	6.002052e-002	1.000000e+001	5.000000e+000	0.000000e+000	
234	6.002157e-002	1.000000e+001	5.000000e+000	0.000000e+000	
235	6.002367e-002	1.000000e+001	5.000000e+000	0.000000e+000	
236	6.002786e-002	1.000000e+001	5.000000e+000	0.000000e+000	
237	6.003625e-002	1.000000e+001	5.000000e+000	0.000000e+000	
238	6.005303e-002	1.000000e+001	5.000000e+000	0.000000e+000	
239	6.008658e-002	1.000000e+001	5.000000e+000	0.000000e+000	
240	6.015369e-002	1.000000e+001	5.000000e+000	0.000000e+000	
241	6.028791e-002	1.000000e+001	5.000000e+000	0.000000e+000	
242	6.055635e-002	1.000000e+001	5.000000e+000	0.000000e+000	
243	6.109322e-002	1.000000e+001	5.000000e+000	0.000000e+000	
244	6.216696e-002	1.000000e+001	5.000000e+000	0.000000e+000	
245	6.431444e-002	1.000000e+001	5.000000e+000	0.000000e+000	
246	6.860941e-002	1.000000e+001	5.000000e+000	0.000000e+000	
247	7.002000e-002	1.000000e+001	5.000000e+000	0.000000e+000	
248	7.002100e-002	9.000000e+000	5.000000e+000	0.000000e+000	
249	7.002300e-002	7.000000e+000	5.000000e+000	0.000000e+000	
250	7.002700e-002	3.000000e+000	5.000000e+000	0.000000e+000	
251	7.003000e-002	0.000000e+000	5.000000e+000	0.000000e+000	
252	7.003080e-002	0.000000e+000	5.000000e+000	0.000000e+000	
253	7.003240e-002	0.000000e+000	5.000000e+000	0.000000e+000	
254	7.003560e-002	0.000000e+000	5.000000e+000	0.000000e+000	
255	7.004200e-002	0.000000e+000	5.000000e+000	0.000000e+000	
256	7.005480e-002	0.000000e+000	5.000000e+000	0.000000e+000	
257	7.008040e-002	0.000000e+000	5.000000e+000	0.000000e+000	
258	7.013160e-002	0.000000e+000	5.000000e+000	0.000000e+000	
259	7.023400e-002	0.000000e+000	5.000000e+000	0.000000e+000	
260	7.043880e-002	0.000000e+000	5.000000e+000	0.000000e+000	
261	7.084840e-002	0.000000e+000	5.000000e+000	0.000000e+000	
262	7.166760e-002	0.000000e+000	5.000000e+000	0.000000e+000	
263	7.330600e-002	0.000000e+000	5.000000e+000	0.000000e+000	
264	7.658280e-002	0.000000e+000	5.000000e+000	0.000000e+000	
265	8.001000e-002	0.000000e+000	5.000000e+000	0.000000e+000	
266	8.001100e-002	1.000000e+000	5.000000e+000	0.000000e+000	
267	8.001100e-002	1.002000e+000	5.000000e+000	0.000000e+000	
268	8.001100e-002	1.002100e+000	4.500000e+000	5.000000e-001	
269	8.001100e-002	1.002300e+000	3.500000e+000	1.500000e+000	
270	8.001100e-002	1.002700e+000	1.500000e+000	3.500000e+000	
271	8.001100e-002	1.003000e+000	2.631785e-009	5.000000e+000	
272	8.001100e-002	1.003080e+000	0.000000e+000	5.000000e+000	
273	8.001100e-002	1.003240e+000	0.000000e+000	5.000000e+000	
274	8.001100e-002	1.003560e+000	0.000000e+000	5.000000e+000	
275	8.001100e-002	1.004200e+000	0.000000e+000	5.000000e+000	
276	8.001101e-002	1.005480e+000	0.000000e+000	5.000000e+000	
277	8.001101e-002	1.008040e+000	0.000000e+000	5.000000e+000	
278	8.001101e-002	1.013160e+000	0.000000e+000	5.000000e+000	
279	8.001102e-002	1.023400e+000	0.000000e+000	5.000000e+000	
280	8.001104e-002	1.043880e+000	0.000000e+000	5.000000e+000	
281	8.001108e-002	1.084840e+000	0.000000e+000	5.000000e+000	
282	8.001117e-002	1.166760e+000	0.000000e+000	5.000000e+000	
283	8.001133e-002	1.330600e+000	0.000000e+000	5.000000e+000	
284	8.001166e-002	1.658280e+000	0.000000e+000	5.000000e+000	
285	8.001231e-002	2.313640e+000	0.000000e+000	5.000000e+000	
286	8.001362e-002	3.624360e+000	0.000000e+000	5.000000e+000	

Index   time            clk             out1            out2            
--------------------------------------------------------------------------------
287	8.001625e-002	6.245800e+000	0.000000e+000	5.000000e+000	
288	8.002000e-002	1.000000e+001	0.000000e+000	5.000000e+000	
289	8.002052e-002	1.000000e+001	0.000000e+000	5.000000e+000	
290	8.002157e-002	1.000000e+001	0.000000e+000	5.000000e+000	
291	8.002367e-002	1.000000e+001	0.000000e+000	5.000000e+000	
292	8.002786e-002	1.000000e+001	0.000000e+000	5.000000e+000	
293	8.003625e-002	1.000000e+001	0.000000e+000	5.000000e+000	
294	8.005303e-002	1.000000e+001	0.000000e+000	5.000000e+000	
295	8.008658e-002	1.000000e+001	0.000000e+000	5.000000e+000	
296	8.015369e-002	1.000000e+001	0.000000e+000	5.000000e+000	
297	8.028791e-002	1.000000e+001	0.000000e+000	5.000000e+000	
298	8.055635e-002	1.000000e+001	0.000000e+000	5.000000e+000	
299	8.109322e-002	1.000000e+001	0.000000e+000	5.000000e+000	
300	8.216696e-002	1.000000e+001	0.000000e+000	5.000000e+000	
301	8.431444e-002	1.000000e+001	0.000000e+000	5.000000e+000	
302	8.860941e-002	1.000000e+001	0.000000e+000	5.000000e+000	
303	9.002000e-002	1.000000e+001	0.000000e+000	5.000000e+000	
304	9.002100e-002	9.000000e+000	0.000000e+000	5.000000e+000	
